 time            v(s1)           v(s2)           i(vmeas)        v(s1b)          v(s2b)          i(vmeas1)      
 0.00000000e+00  1.00000000e+00  1.00000000e+00  0.00000000e+00  1.00000000e+00  1.00000000e+00  0.00000000e+00 
 1.00000000e-11  1.00000000e+00  1.00000000e+00  0.00000000e+00  1.00000000e+00  1.00000000e+00  0.00000000e+00 
 2.00000000e-11  1.00000000e+00  1.00000000e+00  0.00000000e+00  1.00000000e+00  1.00000000e+00  0.00000000e+00 
 4.00000000e-11  1.00000000e+00  1.00000000e+00  0.00000000e+00  1.00000000e+00  1.00000000e+00  0.00000000e+00 
 8.00000000e-11  1.00000000e+00  1.00000000e+00  0.00000000e+00  1.00000000e+00  1.00000000e+00  0.00000000e+00 
 1.60000000e-10  1.00000000e+00  1.00000000e+00  0.00000000e+00  1.00000000e+00  1.00000000e+00  0.00000000e+00 
 3.20000000e-10  1.00000000e+00  1.00000000e+00  0.00000000e+00  1.00000000e+00  1.00000000e+00  0.00000000e+00 
 6.40000000e-10  1.00000000e+00  1.00000000e+00  0.00000000e+00  1.00000000e+00  1.00000000e+00  0.00000000e+00 
 1.28000000e-09  1.00000000e+00  1.00000000e+00  0.00000000e+00  1.00000000e+00  1.00000000e+00  0.00000000e+00 
 2.28000000e-09  1.00000000e+00  1.00000000e+00  0.00000000e+00  1.00000000e+00  1.00000000e+00  0.00000000e+00 
 3.28000000e-09  1.00000000e+00  1.00000000e+00  0.00000000e+00  1.00000000e+00  1.00000000e+00  0.00000000e+00 
 4.28000000e-09  1.00000000e+00  1.00000000e+00  0.00000000e+00  1.00000000e+00  1.00000000e+00  0.00000000e+00 
 5.28000000e-09  1.00000000e+00  1.00000000e+00  0.00000000e+00  1.00000000e+00  1.00000000e+00  0.00000000e+00 
 6.28000000e-09  1.00000000e+00  1.00000000e+00  0.00000000e+00  1.00000000e+00  1.00000000e+00  0.00000000e+00 
 7.28000000e-09  1.00000000e+00  1.00000000e+00  0.00000000e+00  1.00000000e+00  1.00000000e+00  0.00000000e+00 
 8.28000000e-09  1.00000000e+00  1.00000000e+00  0.00000000e+00  1.00000000e+00  1.00000000e+00  0.00000000e+00 
 9.28000000e-09  1.00000000e+00  1.00000000e+00  0.00000000e+00  1.00000000e+00  1.00000000e+00  0.00000000e+00 
 1.02800000e-08  1.00000000e+00  1.00000000e+00  0.00000000e+00  1.00000000e+00  1.00000000e+00  0.00000000e+00 
 1.12800000e-08  1.00000000e+00  1.00000000e+00  0.00000000e+00  1.00000000e+00  1.00000000e+00  0.00000000e+00 
 1.22800000e-08  1.00000000e+00  1.00000000e+00  0.00000000e+00  1.00000000e+00  1.00000000e+00  0.00000000e+00 
 1.32800000e-08  1.00000000e+00  1.00000000e+00  0.00000000e+00  1.00000000e+00  1.00000000e+00  0.00000000e+00 
 1.42800000e-08  1.00000000e+00  1.00000000e+00  0.00000000e+00  1.00000000e+00  1.00000000e+00  0.00000000e+00 
 1.52800000e-08  1.00000000e+00  1.00000000e+00  0.00000000e+00  1.00000000e+00  1.00000000e+00  0.00000000e+00 
 1.62800000e-08  1.00000000e+00  1.00000000e+00  0.00000000e+00  1.00000000e+00  1.00000000e+00  0.00000000e+00 
 1.72800000e-08  1.00000000e+00  1.00000000e+00  0.00000000e+00  1.00000000e+00  1.00000000e+00  0.00000000e+00 
 1.82800000e-08  1.00000000e+00  1.00000000e+00  0.00000000e+00  1.00000000e+00  1.00000000e+00  0.00000000e+00 
 1.92800000e-08  1.00000000e+00  1.00000000e+00  0.00000000e+00  1.00000000e+00  1.00000000e+00  0.00000000e+00 
 2.02800000e-08  1.00000000e+00  1.00000000e+00  0.00000000e+00  1.00000000e+00  1.00000000e+00  0.00000000e+00 
 2.12800000e-08  1.00000000e+00  1.00000000e+00  0.00000000e+00  1.00000000e+00  1.00000000e+00  0.00000000e+00 
 2.22800000e-08  1.00000000e+00  1.00000000e+00  0.00000000e+00  1.00000000e+00  1.00000000e+00  0.00000000e+00 
 2.32800000e-08  1.00000000e+00  1.00000000e+00  0.00000000e+00  1.00000000e+00  1.00000000e+00  0.00000000e+00 
 2.42800000e-08  1.00000000e+00  1.00000000e+00  0.00000000e+00  1.00000000e+00  1.00000000e+00  0.00000000e+00 
 2.52800000e-08  1.00000000e+00  1.00000000e+00  0.00000000e+00  1.00000000e+00  1.00000000e+00  0.00000000e+00 
 2.62800000e-08  1.00000000e+00  1.00000000e+00  0.00000000e+00  1.00000000e+00  1.00000000e+00  0.00000000e+00 
 2.72800000e-08  1.00000000e+00  1.00000000e+00  0.00000000e+00  1.00000000e+00  1.00000000e+00  0.00000000e+00 
 2.82800000e-08  1.00000000e+00  1.00000000e+00  0.00000000e+00  1.00000000e+00  1.00000000e+00  0.00000000e+00 
 2.92800000e-08  1.00000000e+00  1.00000000e+00  0.00000000e+00  1.00000000e+00  1.00000000e+00  0.00000000e+00 
 3.02800000e-08  1.00000000e+00  1.00000000e+00  0.00000000e+00  1.00000000e+00  1.00000000e+00  0.00000000e+00 
 3.12800000e-08  1.00000000e+00  1.00000000e+00  0.00000000e+00  1.00000000e+00  1.00000000e+00  0.00000000e+00 
 3.22800000e-08  1.00000000e+00  1.00000000e+00  0.00000000e+00  1.00000000e+00  1.00000000e+00  0.00000000e+00 
 3.32800000e-08  1.00000000e+00  1.00000000e+00  0.00000000e+00  1.00000000e+00  1.00000000e+00  0.00000000e+00 
 3.42800000e-08  1.00000000e+00  1.00000000e+00  0.00000000e+00  1.00000000e+00  1.00000000e+00  0.00000000e+00 
 3.52800000e-08  1.00000000e+00  1.00000000e+00  0.00000000e+00  1.00000000e+00  1.00000000e+00  0.00000000e+00 
 3.62800000e-08  1.00000000e+00  1.00000000e+00  0.00000000e+00  1.00000000e+00  1.00000000e+00  0.00000000e+00 
 3.72800000e-08  1.00000000e+00  1.00000000e+00  0.00000000e+00  1.00000000e+00  1.00000000e+00  0.00000000e+00 
 3.82800000e-08  1.00000000e+00  1.00000000e+00  0.00000000e+00  1.00000000e+00  1.00000000e+00  0.00000000e+00 
 3.92800000e-08  1.00000000e+00  1.00000000e+00  0.00000000e+00  1.00000000e+00  1.00000000e+00  0.00000000e+00 
 4.02800000e-08  1.00000000e+00  1.00000000e+00  0.00000000e+00  1.00000000e+00  1.00000000e+00  0.00000000e+00 
 4.12800000e-08  1.00000000e+00  1.00000000e+00  0.00000000e+00  1.00000000e+00  1.00000000e+00  0.00000000e+00 
 4.22800000e-08  1.00000000e+00  1.00000000e+00  0.00000000e+00  1.00000000e+00  1.00000000e+00  0.00000000e+00 
 4.32800000e-08  1.00000000e+00  1.00000000e+00  0.00000000e+00  1.00000000e+00  1.00000000e+00  0.00000000e+00 
 4.42800000e-08  1.00000000e+00  1.00000000e+00  0.00000000e+00  1.00000000e+00  1.00000000e+00  0.00000000e+00 
 4.52800000e-08  1.00000000e+00  1.00000000e+00  0.00000000e+00  1.00000000e+00  1.00000000e+00  0.00000000e+00 
 4.62800000e-08  1.00000000e+00  1.00000000e+00  0.00000000e+00  1.00000000e+00  1.00000000e+00  0.00000000e+00 
 4.72800000e-08  1.00000000e+00  1.00000000e+00  0.00000000e+00  1.00000000e+00  1.00000000e+00  0.00000000e+00 
 4.82800000e-08  1.00000000e+00  1.00000000e+00  0.00000000e+00  1.00000000e+00  1.00000000e+00  0.00000000e+00 
 4.92800000e-08  1.00000000e+00  1.00000000e+00  0.00000000e+00  1.00000000e+00  1.00000000e+00  0.00000000e+00 
 5.02800000e-08  1.00000000e+00  1.00000000e+00  0.00000000e+00  1.00000000e+00  1.00000000e+00  0.00000000e+00 
 5.12800000e-08  1.00000000e+00  1.00000000e+00  0.00000000e+00  1.00000000e+00  1.00000000e+00  0.00000000e+00 
 5.22800000e-08  1.00000000e+00  1.00000000e+00  0.00000000e+00  1.00000000e+00  1.00000000e+00  0.00000000e+00 
 5.32800000e-08  1.00000000e+00  1.00000000e+00  0.00000000e+00  1.00000000e+00  1.00000000e+00  0.00000000e+00 
 5.42800000e-08  1.00000000e+00  1.00000000e+00  0.00000000e+00  1.00000000e+00  1.00000000e+00  0.00000000e+00 
 5.52800000e-08  1.00000000e+00  1.00000000e+00  0.00000000e+00  1.00000000e+00  1.00000000e+00  0.00000000e+00 
 5.62800000e-08  1.00000000e+00  1.00000000e+00  0.00000000e+00  1.00000000e+00  1.00000000e+00  0.00000000e+00 
 5.72800000e-08  1.00000000e+00  1.00000000e+00  0.00000000e+00  1.00000000e+00  1.00000000e+00  0.00000000e+00 
 5.82800000e-08  1.00000000e+00  1.00000000e+00  0.00000000e+00  1.00000000e+00  1.00000000e+00  0.00000000e+00 
 5.92800000e-08  1.00000000e+00  1.00000000e+00  0.00000000e+00  1.00000000e+00  1.00000000e+00  0.00000000e+00 
 6.02800000e-08  1.00000000e+00  1.00000000e+00  0.00000000e+00  1.00000000e+00  1.00000000e+00  0.00000000e+00 
 6.12800000e-08  1.00000000e+00  1.00000000e+00  0.00000000e+00  1.00000000e+00  1.00000000e+00  0.00000000e+00 
 6.22800000e-08  1.00000000e+00  1.00000000e+00  0.00000000e+00  1.00000000e+00  1.00000000e+00  0.00000000e+00 
 6.32800000e-08  1.00000000e+00  1.00000000e+00  0.00000000e+00  1.00000000e+00  1.00000000e+00  0.00000000e+00 
 6.42800000e-08  1.00000000e+00  1.00000000e+00  0.00000000e+00  1.00000000e+00  1.00000000e+00  0.00000000e+00 
 6.52800000e-08  1.00000000e+00  1.00000000e+00  0.00000000e+00  1.00000000e+00  1.00000000e+00  0.00000000e+00 
 6.62800000e-08  1.00000000e+00  1.00000000e+00  0.00000000e+00  1.00000000e+00  1.00000000e+00  0.00000000e+00 
 6.72800000e-08  1.00000000e+00  1.00000000e+00  0.00000000e+00  1.00000000e+00  1.00000000e+00  0.00000000e+00 
 6.82800000e-08  1.00000000e+00  1.00000000e+00  0.00000000e+00  1.00000000e+00  1.00000000e+00  0.00000000e+00 
 6.92800000e-08  1.00000000e+00  1.00000000e+00  0.00000000e+00  1.00000000e+00  1.00000000e+00  0.00000000e+00 
 7.02800000e-08  1.00000000e+00  1.00000000e+00  0.00000000e+00  1.00000000e+00  1.00000000e+00  0.00000000e+00 
 7.12800000e-08  1.00000000e+00  1.00000000e+00  0.00000000e+00  1.00000000e+00  1.00000000e+00  0.00000000e+00 
 7.22800000e-08  1.00000000e+00  1.00000000e+00  0.00000000e+00  1.00000000e+00  1.00000000e+00  0.00000000e+00 
 7.32800000e-08  1.00000000e+00  1.00000000e+00  0.00000000e+00  1.00000000e+00  1.00000000e+00  0.00000000e+00 
 7.42800000e-08  1.00000000e+00  1.00000000e+00  0.00000000e+00  1.00000000e+00  1.00000000e+00  0.00000000e+00 
 7.52800000e-08  1.00000000e+00  1.00000000e+00  0.00000000e+00  1.00000000e+00  1.00000000e+00  0.00000000e+00 
 7.62800000e-08  1.00000000e+00  1.00000000e+00  0.00000000e+00  1.00000000e+00  1.00000000e+00  0.00000000e+00 
 7.72800000e-08  1.00000000e+00  1.00000000e+00  0.00000000e+00  1.00000000e+00  1.00000000e+00  0.00000000e+00 
 7.82800000e-08  1.00000000e+00  1.00000000e+00  0.00000000e+00  1.00000000e+00  1.00000000e+00  0.00000000e+00 
 7.92800000e-08  1.00000000e+00  1.00000000e+00  0.00000000e+00  1.00000000e+00  1.00000000e+00  0.00000000e+00 
 8.02800000e-08  1.00000000e+00  1.00000000e+00  0.00000000e+00  1.00000000e+00  1.00000000e+00  0.00000000e+00 
 8.12800000e-08  1.00000000e+00  1.00000000e+00  0.00000000e+00  1.00000000e+00  1.00000000e+00  0.00000000e+00 
 8.22800000e-08  1.00000000e+00  1.00000000e+00  0.00000000e+00  1.00000000e+00  1.00000000e+00  0.00000000e+00 
 8.32800000e-08  1.00000000e+00  1.00000000e+00  0.00000000e+00  1.00000000e+00  1.00000000e+00  0.00000000e+00 
 8.42800000e-08  1.00000000e+00  1.00000000e+00  0.00000000e+00  1.00000000e+00  1.00000000e+00  0.00000000e+00 
 8.52800000e-08  1.00000000e+00  1.00000000e+00  0.00000000e+00  1.00000000e+00  1.00000000e+00  0.00000000e+00 
 8.62800000e-08  1.00000000e+00  1.00000000e+00  0.00000000e+00  1.00000000e+00  1.00000000e+00  0.00000000e+00 
 8.72800000e-08  1.00000000e+00  1.00000000e+00  0.00000000e+00  1.00000000e+00  1.00000000e+00  0.00000000e+00 
 8.82800000e-08  1.00000000e+00  1.00000000e+00  0.00000000e+00  1.00000000e+00  1.00000000e+00  0.00000000e+00 
 8.92800000e-08  1.00000000e+00  1.00000000e+00  0.00000000e+00  1.00000000e+00  1.00000000e+00  0.00000000e+00 
 9.02800000e-08  1.00000000e+00  1.00000000e+00  0.00000000e+00  1.00000000e+00  1.00000000e+00  0.00000000e+00 
 9.12800000e-08  1.00000000e+00  1.00000000e+00  0.00000000e+00  1.00000000e+00  1.00000000e+00  0.00000000e+00 
 9.22800000e-08  1.00000000e+00  1.00000000e+00  0.00000000e+00  1.00000000e+00  1.00000000e+00  0.00000000e+00 
 9.32800000e-08  1.00000000e+00  1.00000000e+00  0.00000000e+00  1.00000000e+00  1.00000000e+00  0.00000000e+00 
 9.42800000e-08  1.00000000e+00  1.00000000e+00  0.00000000e+00  1.00000000e+00  1.00000000e+00  0.00000000e+00 
 9.52800000e-08  1.00000000e+00  1.00000000e+00  0.00000000e+00  1.00000000e+00  1.00000000e+00  0.00000000e+00 
 9.62800000e-08  1.00000000e+00  1.00000000e+00  0.00000000e+00  1.00000000e+00  1.00000000e+00  0.00000000e+00 
 9.72800000e-08  1.00000000e+00  1.00000000e+00  0.00000000e+00  1.00000000e+00  1.00000000e+00  0.00000000e+00 
 9.82800000e-08  1.00000000e+00  1.00000000e+00  0.00000000e+00  1.00000000e+00  1.00000000e+00  0.00000000e+00 
 9.92800000e-08  1.00000000e+00  1.00000000e+00  0.00000000e+00  1.00000000e+00  1.00000000e+00  0.00000000e+00 
 1.00000000e-07  1.00000000e+00  1.00000000e+00  0.00000000e+00  1.00000000e+00  1.00000000e+00  0.00000000e+00 
 1.00010000e-07  1.05000000e+00  1.00000000e+00  2.71542404e-07  1.00000000e+00  1.05000000e+00 -2.71542404e-07 
 1.00030000e-07  1.15000000e+00  1.00000000e+00  8.29379423e-07  1.00000000e+00  1.15000000e+00 -8.29379423e-07 
 1.00070000e-07  1.35000000e+00  1.00000000e+00  2.11298148e-06  1.00000000e+00  1.35000000e+00 -2.11298148e-06 
 1.00100000e-07  1.50000000e+00  1.00000000e+00  3.36247917e-06  1.00000000e+00  1.50000000e+00 -3.36247917e-06 
 1.00108000e-07  1.50000000e+00  1.00000000e+00  3.36247917e-06  1.00000000e+00  1.50000000e+00 -3.36247917e-06 
 1.00124000e-07  1.50000000e+00  1.00000000e+00  3.36247917e-06  1.00000000e+00  1.50000000e+00 -3.36247917e-06 
 1.00156000e-07  1.50000000e+00  1.00000000e+00  3.36247917e-06  1.00000000e+00  1.50000000e+00 -3.36247917e-06 
 1.00220000e-07  1.50000000e+00  1.00000000e+00  3.36247917e-06  1.00000000e+00  1.50000000e+00 -3.36247917e-06 
 1.00348000e-07  1.50000000e+00  1.00000000e+00  3.36247917e-06  1.00000000e+00  1.50000000e+00 -3.36247917e-06 
 1.00604000e-07  1.50000000e+00  1.00000000e+00  3.36247917e-06  1.00000000e+00  1.50000000e+00 -3.36247917e-06 
 1.01116000e-07  1.50000000e+00  1.00000000e+00  3.36247917e-06  1.00000000e+00  1.50000000e+00 -3.36247917e-06 
 1.02116000e-07  1.50000000e+00  1.00000000e+00  3.36247917e-06  1.00000000e+00  1.50000000e+00 -3.36247917e-06 
 1.03116000e-07  1.50000000e+00  1.00000000e+00  3.36247917e-06  1.00000000e+00  1.50000000e+00 -3.36247917e-06 
 1.04116000e-07  1.50000000e+00  1.00000000e+00  3.36247917e-06  1.00000000e+00  1.50000000e+00 -3.36247917e-06 
 1.05116000e-07  1.50000000e+00  1.00000000e+00  3.36247917e-06  1.00000000e+00  1.50000000e+00 -3.36247917e-06 
 1.06116000e-07  1.50000000e+00  1.00000000e+00  3.36247917e-06  1.00000000e+00  1.50000000e+00 -3.36247917e-06 
 1.07116000e-07  1.50000000e+00  1.00000000e+00  3.36247917e-06  1.00000000e+00  1.50000000e+00 -3.36247917e-06 
 1.08116000e-07  1.50000000e+00  1.00000000e+00  3.36247917e-06  1.00000000e+00  1.50000000e+00 -3.36247917e-06 
 1.09116000e-07  1.50000000e+00  1.00000000e+00  3.36247917e-06  1.00000000e+00  1.50000000e+00 -3.36247917e-06 
 1.10000000e-07  1.50000000e+00  1.00000000e+00  3.36247917e-06  1.00000000e+00  1.50000000e+00 -3.36247917e-06 
 1.10010000e-07  1.50000000e+00  1.05000000e+00  2.90848137e-06  1.05000000e+00  1.50000000e+00 -2.90848137e-06 
 1.10030000e-07  1.50000000e+00  1.15000000e+00  2.11298148e-06  1.15000000e+00  1.50000000e+00 -2.11298148e-06 
 1.10070000e-07  1.50000000e+00  1.35000000e+00  8.29379423e-07  1.35000000e+00  1.50000000e+00 -8.29379423e-07 
 1.10100000e-07  1.50000000e+00  1.50000000e+00  0.00000000e+00  1.50000000e+00  1.50000000e+00  0.00000000e+00 
 1.10108000e-07  1.50000000e+00  1.50000000e+00  0.00000000e+00  1.50000000e+00  1.50000000e+00  0.00000000e+00 
 1.10124000e-07  1.50000000e+00  1.50000000e+00  0.00000000e+00  1.50000000e+00  1.50000000e+00  0.00000000e+00 
 1.10156000e-07  1.50000000e+00  1.50000000e+00  0.00000000e+00  1.50000000e+00  1.50000000e+00  0.00000000e+00 
 1.10220000e-07  1.50000000e+00  1.50000000e+00  0.00000000e+00  1.50000000e+00  1.50000000e+00  0.00000000e+00 
 1.10348000e-07  1.50000000e+00  1.50000000e+00  0.00000000e+00  1.50000000e+00  1.50000000e+00  0.00000000e+00 
 1.10604000e-07  1.50000000e+00  1.50000000e+00  0.00000000e+00  1.50000000e+00  1.50000000e+00  0.00000000e+00 
 1.11116000e-07  1.50000000e+00  1.50000000e+00  0.00000000e+00  1.50000000e+00  1.50000000e+00  0.00000000e+00 
 1.12116000e-07  1.50000000e+00  1.50000000e+00  0.00000000e+00  1.50000000e+00  1.50000000e+00  0.00000000e+00 
 1.13116000e-07  1.50000000e+00  1.50000000e+00  0.00000000e+00  1.50000000e+00  1.50000000e+00  0.00000000e+00 
 1.14116000e-07  1.50000000e+00  1.50000000e+00  0.00000000e+00  1.50000000e+00  1.50000000e+00  0.00000000e+00 
 1.15116000e-07  1.50000000e+00  1.50000000e+00  0.00000000e+00  1.50000000e+00  1.50000000e+00  0.00000000e+00 
 1.16116000e-07  1.50000000e+00  1.50000000e+00  0.00000000e+00  1.50000000e+00  1.50000000e+00  0.00000000e+00 
 1.17116000e-07  1.50000000e+00  1.50000000e+00  0.00000000e+00  1.50000000e+00  1.50000000e+00  0.00000000e+00 
 1.18116000e-07  1.50000000e+00  1.50000000e+00  0.00000000e+00  1.50000000e+00  1.50000000e+00  0.00000000e+00 
 1.19116000e-07  1.50000000e+00  1.50000000e+00  0.00000000e+00  1.50000000e+00  1.50000000e+00  0.00000000e+00 
 1.20116000e-07  1.50000000e+00  1.50000000e+00  0.00000000e+00  1.50000000e+00  1.50000000e+00  0.00000000e+00 
 1.21116000e-07  1.50000000e+00  1.50000000e+00  0.00000000e+00  1.50000000e+00  1.50000000e+00  0.00000000e+00 
 1.22116000e-07  1.50000000e+00  1.50000000e+00  0.00000000e+00  1.50000000e+00  1.50000000e+00  0.00000000e+00 
 1.23116000e-07  1.50000000e+00  1.50000000e+00  0.00000000e+00  1.50000000e+00  1.50000000e+00  0.00000000e+00 
 1.24116000e-07  1.50000000e+00  1.50000000e+00  0.00000000e+00  1.50000000e+00  1.50000000e+00  0.00000000e+00 
 1.25116000e-07  1.50000000e+00  1.50000000e+00  0.00000000e+00  1.50000000e+00  1.50000000e+00  0.00000000e+00 
 1.26116000e-07  1.50000000e+00  1.50000000e+00  0.00000000e+00  1.50000000e+00  1.50000000e+00  0.00000000e+00 
 1.27116000e-07  1.50000000e+00  1.50000000e+00  0.00000000e+00  1.50000000e+00  1.50000000e+00  0.00000000e+00 
 1.28116000e-07  1.50000000e+00  1.50000000e+00  0.00000000e+00  1.50000000e+00  1.50000000e+00  0.00000000e+00 
 1.29116000e-07  1.50000000e+00  1.50000000e+00  0.00000000e+00  1.50000000e+00  1.50000000e+00  0.00000000e+00 
 1.30116000e-07  1.50000000e+00  1.50000000e+00  0.00000000e+00  1.50000000e+00  1.50000000e+00  0.00000000e+00 
 1.31116000e-07  1.50000000e+00  1.50000000e+00  0.00000000e+00  1.50000000e+00  1.50000000e+00  0.00000000e+00 
 1.32116000e-07  1.50000000e+00  1.50000000e+00  0.00000000e+00  1.50000000e+00  1.50000000e+00  0.00000000e+00 
 1.33116000e-07  1.50000000e+00  1.50000000e+00  0.00000000e+00  1.50000000e+00  1.50000000e+00  0.00000000e+00 
 1.34116000e-07  1.50000000e+00  1.50000000e+00  0.00000000e+00  1.50000000e+00  1.50000000e+00  0.00000000e+00 
 1.35116000e-07  1.50000000e+00  1.50000000e+00  0.00000000e+00  1.50000000e+00  1.50000000e+00  0.00000000e+00 
 1.36116000e-07  1.50000000e+00  1.50000000e+00  0.00000000e+00  1.50000000e+00  1.50000000e+00  0.00000000e+00 
 1.37116000e-07  1.50000000e+00  1.50000000e+00  0.00000000e+00  1.50000000e+00  1.50000000e+00  0.00000000e+00 
 1.38116000e-07  1.50000000e+00  1.50000000e+00  0.00000000e+00  1.50000000e+00  1.50000000e+00  0.00000000e+00 
 1.39116000e-07  1.50000000e+00  1.50000000e+00  0.00000000e+00  1.50000000e+00  1.50000000e+00  0.00000000e+00 
 1.40116000e-07  1.50000000e+00  1.50000000e+00  0.00000000e+00  1.50000000e+00  1.50000000e+00  0.00000000e+00 
 1.41116000e-07  1.50000000e+00  1.50000000e+00  0.00000000e+00  1.50000000e+00  1.50000000e+00  0.00000000e+00 
 1.42116000e-07  1.50000000e+00  1.50000000e+00  0.00000000e+00  1.50000000e+00  1.50000000e+00  0.00000000e+00 
 1.43116000e-07  1.50000000e+00  1.50000000e+00  0.00000000e+00  1.50000000e+00  1.50000000e+00  0.00000000e+00 
 1.44116000e-07  1.50000000e+00  1.50000000e+00  0.00000000e+00  1.50000000e+00  1.50000000e+00  0.00000000e+00 
 1.45116000e-07  1.50000000e+00  1.50000000e+00  0.00000000e+00  1.50000000e+00  1.50000000e+00  0.00000000e+00 
 1.46116000e-07  1.50000000e+00  1.50000000e+00  0.00000000e+00  1.50000000e+00  1.50000000e+00  0.00000000e+00 
 1.47116000e-07  1.50000000e+00  1.50000000e+00  0.00000000e+00  1.50000000e+00  1.50000000e+00  0.00000000e+00 
